v1	V(n001)	V(n003)	V(n004)	-I(R1)	-I(R2)
0.000000000000000e+00	1.000000e+01	1.000000e+01	3.321690e-07	-1.006573e-11	1.009154e-11
1.000000000000000e-02	1.000000e+01	1.000000e+01	1.000033e-02	-1.004481e-11	1.009215e-11
2.000000000000000e-02	1.000000e+01	1.000000e+01	2.000033e-02	-1.002332e-11	1.010350e-11
3.000000000000000e-02	1.000000e+01	1.000000e+01	3.000033e-02	-1.000157e-11	1.012193e-11
4.000000000000000e-02	1.000000e+01	1.000000e+01	4.000033e-02	-9.979305e-12	1.015157e-11
5.000000000000000e-02	1.000000e+01	1.000000e+01	5.000033e-02	-9.956371e-12	1.020207e-11
6.000000000000000e-02	1.000000e+01	1.000000e+01	6.000033e-02	-9.932556e-12	1.028109e-11
7.000000000000001e-02	1.000000e+01	1.000000e+01	7.000033e-02	-9.907622e-12	1.039989e-11
8.000000000000000e-02	1.000000e+01	1.000000e+01	8.000033e-02	-9.881220e-12	1.057717e-11
9.000000000000000e-02	1.000000e+01	1.000000e+01	9.000032e-02	-9.852882e-12	1.084378e-11
9.999999999999999e-02	1.000000e+01	1.000000e+01	1.000003e-01	-9.822003e-12	1.123963e-11
1.100000000000000e-01	1.000000e+01	1.000000e+01	1.100003e-01	-9.787812e-12	1.182561e-11
1.200000000000000e-01	1.000000e+01	1.000000e+01	1.200003e-01	-9.749265e-12	1.268915e-11
1.300000000000000e-01	1.000000e+01	1.000000e+01	1.300003e-01	-9.704957e-12	1.396212e-11
1.400000000000000e-01	1.000000e+01	1.000000e+01	1.400003e-01	-9.653031e-12	1.583087e-11
1.500000000000000e-01	1.000000e+01	1.000000e+01	1.500003e-01	-9.590975e-12	1.857833e-11
1.600000000000000e-01	1.000000e+01	1.000000e+01	1.600003e-01	-9.515434e-12	2.261310e-11
1.700000000000000e-01	1.000000e+01	1.000000e+01	1.700003e-01	-9.421881e-12	2.853742e-11
1.800000000000000e-01	1.000000e+01	1.000000e+01	1.800003e-01	-9.304164e-12	3.722851e-11
1.900000000000000e-01	1.000000e+01	1.000000e+01	1.900003e-01	-9.153872e-12	4.998469e-11
2.000000000000000e-01	1.000000e+01	1.000000e+01	2.000003e-01	-8.959528e-12	6.869742e-11
2.100000000000000e-01	1.000000e+01	1.000000e+01	2.100003e-01	-8.705324e-12	9.614946e-11
2.200000000000001e-01	1.000000e+01	1.000000e+01	2.200003e-01	-8.369482e-12	1.364218e-10
2.300000000000001e-01	1.000000e+01	1.000000e+01	2.300003e-01	-7.921800e-12	1.954955e-10
2.400000000000001e-01	1.000000e+01	1.000000e+01	2.400002e-01	-7.320199e-12	2.821524e-10
2.500000000000001e-01	1.000000e+01	1.000000e+01	2.500002e-01	-6.505772e-12	4.092626e-10
2.600000000000001e-01	1.000000e+01	9.999999e+00	2.600002e-01	-5.395987e-12	5.957103e-10
2.700000000000001e-01	1.000000e+01	9.999999e+00	2.700001e-01	-3.874287e-12	8.691977e-10
2.800000000000001e-01	1.000000e+01	9.999999e+00	2.800001e-01	-1.776101e-12	1.270346e-09
2.900000000000001e-01	1.000000e+01	9.999998e+00	2.900000e-01	1.132388e-12	1.858752e-09
3.000000000000001e-01	1.000000e+01	9.999997e+00	2.999998e-01	5.184027e-12	2.721819e-09
3.100000000000001e-01	1.000000e+01	9.999996e+00	3.099996e-01	1.085393e-11	3.987748e-09
3.200000000000001e-01	1.000000e+01	9.999994e+00	3.199994e-01	1.882283e-11	5.844575e-09
3.300000000000001e-01	1.000000e+01	9.999991e+00	3.299990e-01	3.006750e-11	8.568096e-09
3.400000000000001e-01	1.000000e+01	9.999988e+00	3.399985e-01	4.599398e-11	1.256281e-08
3.500000000000001e-01	1.000000e+01	9.999982e+00	3.499977e-01	6.862898e-11	1.842194e-08
3.600000000000002e-01	1.000000e+01	9.999973e+00	3.599967e-01	1.009008e-10	2.701548e-08
3.700000000000002e-01	1.000000e+01	9.999960e+00	3.699951e-01	1.470458e-10	3.961920e-08
3.800000000000002e-01	1.000000e+01	9.999942e+00	3.799930e-01	2.132033e-10	5.810363e-08
3.900000000000002e-01	1.000000e+01	9.999915e+00	3.899898e-01	3.082797e-10	8.521097e-08
4.000000000000002e-01	1.000000e+01	9.999875e+00	3.999853e-01	4.452100e-10	1.249602e-07
4.100000000000002e-01	1.000000e+01	9.999817e+00	4.099788e-01	6.427933e-10	1.832397e-07
4.200000000000002e-01	1.000000e+01	9.999731e+00	4.199694e-01	9.283645e-10	2.686716e-07
4.300000000000002e-01	1.000000e+01	9.999606e+00	4.299557e-01	1.341675e-09	3.938722e-07
4.400000000000002e-01	1.000000e+01	9.999423e+00	4.399360e-01	1.940516e-09	5.772814e-07
4.500000000000002e-01	1.000000e+01	9.999154e+00	4.499073e-01	2.808822e-09	8.458074e-07
4.600000000000002e-01	1.000000e+01	9.998761e+00	4.598657e-01	4.068296e-09	1.238623e-06
4.700000000000003e-01	1.000000e+01	9.998187e+00	4.698055e-01	5.894889e-09	1.812561e-06
4.800000000000003e-01	1.000000e+01	9.997351e+00	4.797181e-01	8.541849e-09	2.649670e-06
4.900000000000003e-01	1.000000e+01	9.996133e+00	4.895917e-01	1.237122e-08	3.867543e-06
5.000000000000002e-01	1.000000e+01	9.994367e+00	4.994094e-01	1.789546e-08	5.632987e-06
5.100000000000002e-01	1.000000e+01	9.991821e+00	5.091476e-01	2.582940e-08	8.179103e-06
5.200000000000002e-01	1.000000e+01	9.988175e+00	5.187740e-01	3.714970e-08	1.182481e-05
5.300000000000002e-01	1.000000e+01	9.983006e+00	5.282460e-01	5.315194e-08	1.699357e-05
5.400000000000003e-01	1.000000e+01	9.975775e+00	5.375090e-01	7.548576e-08	2.422488e-05
5.500000000000003e-01	1.000000e+01	9.965832e+00	5.464975e-01	1.061373e-07	3.416822e-05
5.600000000000003e-01	1.000000e+01	9.952452e+00	5.551383e-01	1.473253e-07	4.754843e-05
5.700000000000003e-01	1.000000e+01	9.934903e+00	5.633573e-01	2.012935e-07	6.509678e-05
5.800000000000003e-01	1.000000e+01	9.912543e+00	5.710891e-01	2.700273e-07	8.745693e-05
5.900000000000003e-01	1.000000e+01	9.884909e+00	5.782859e-01	3.549721e-07	1.150916e-04
6.000000000000003e-01	1.000000e+01	9.851778e+00	5.849240e-01	4.568487e-07	1.482217e-04
6.100000000000003e-01	1.000000e+01	9.813182e+00	5.910044e-01	5.756256e-07	1.868179e-04
6.200000000000003e-01	1.000000e+01	9.769361e+00	5.965490e-01	7.106346e-07	2.306388e-04
6.300000000000003e-01	1.000000e+01	9.720702e+00	6.015947e-01	8.607653e-07	2.792975e-04
6.400000000000003e-01	1.000000e+01	9.667671e+00	6.061859e-01	1.024669e-06	3.323284e-04
6.500000000000004e-01	1.000000e+01	9.610757e+00	6.103696e-01	1.200922e-06	3.892431e-04
6.600000000000004e-01	1.000000e+01	9.550433e+00	6.141914e-01	1.388140e-06	4.495671e-04
6.700000000000004e-01	1.000000e+01	9.487139e+00	6.176937e-01	1.585039e-06	5.128614e-04
6.800000000000004e-01	1.000000e+01	9.421268e+00	6.209146e-01	1.790467e-06	5.787319e-04
6.900000000000004e-01	1.000000e+01	9.353169e+00	6.238876e-01	2.003405e-06	6.468309e-04
7.000000000000004e-01	1.000000e+01	9.283144e+00	6.266420e-01	2.222969e-06	7.168561e-04
7.100000000000004e-01	1.000000e+01	9.211454e+00	6.292031e-01	2.448392e-06	7.885453e-04
7.200000000000004e-01	1.000000e+01	9.138328e+00	6.315926e-01	2.679011e-06	8.616726e-04
7.300000000000004e-01	1.000000e+01	9.063957e+00	6.338296e-01	2.914255e-06	9.360429e-04
7.400000000000004e-01	1.000000e+01	8.988512e+00	6.359301e-01	3.153633e-06	1.011488e-03
7.500000000000004e-01	1.000000e+01	8.912138e+00	6.379083e-01	3.396716e-06	1.087862e-03
7.600000000000005e-01	1.000000e+01	8.834960e+00	6.397765e-01	3.643136e-06	1.165040e-03
7.700000000000005e-01	1.000000e+01	8.757090e+00	6.415452e-01	3.892569e-06	1.242911e-03
7.800000000000005e-01	1.000000e+01	8.678621e+00	6.432238e-01	4.144735e-06	1.321379e-03
7.900000000000005e-01	1.000000e+01	8.599638e+00	6.448202e-01	4.399387e-06	1.400362e-03
8.000000000000005e-01	1.000000e+01	8.520215e+00	6.463419e-01	4.656308e-06	1.479785e-03
8.100000000000005e-01	1.000000e+01	8.440416e+00	6.477949e-01	4.915307e-06	1.559584e-03
8.200000000000005e-01	1.000000e+01	8.360299e+00	6.491849e-01	5.176214e-06	1.639701e-03
8.300000000000005e-01	1.000000e+01	8.279914e+00	6.505170e-01	5.438878e-06	1.720086e-03
8.400000000000005e-01	1.000000e+01	8.199307e+00	6.517956e-01	5.703165e-06	1.800693e-03
8.500000000000005e-01	1.000000e+01	8.118517e+00	6.530245e-01	5.968955e-06	1.881483e-03
8.600000000000005e-01	1.000000e+01	8.037581e+00	6.542074e-01	6.236139e-06	1.962419e-03
8.700000000000006e-01	1.000000e+01	7.956532e+00	6.553476e-01	6.504619e-06	2.043468e-03
8.800000000000006e-01	1.000000e+01	7.875397e+00	6.564478e-01	6.774309e-06	2.124603e-03
8.900000000000006e-01	1.000000e+01	7.794203e+00	6.575108e-01	7.045129e-06	2.205797e-03
9.000000000000006e-01	1.000000e+01	7.712974e+00	6.585388e-01	7.317005e-06	2.287026e-03
9.100000000000006e-01	1.000000e+01	7.631731e+00	6.595342e-01	7.589873e-06	2.368269e-03
9.200000000000006e-01	1.000000e+01	7.550494e+00	6.604988e-01	7.863673e-06	2.449506e-03
9.300000000000006e-01	1.000000e+01	7.469280e+00	6.614345e-01	8.138349e-06	2.530721e-03
9.400000000000006e-01	1.000000e+01	7.388104e+00	6.623430e-01	8.413850e-06	2.611896e-03
9.500000000000006e-01	1.000000e+01	7.306983e+00	6.632257e-01	8.690132e-06	2.693017e-03
9.600000000000006e-01	1.000000e+01	7.225928e+00	6.640840e-01	8.967151e-06	2.774072e-03
9.700000000000006e-01	1.000000e+01	7.144952e+00	6.649194e-01	9.244868e-06	2.855048e-03
9.800000000000006e-01	1.000000e+01	7.064066e+00	6.657329e-01	9.523247e-06	2.935934e-03
9.900000000000007e-01	1.000000e+01	6.983281e+00	6.665257e-01	9.802254e-06	3.016720e-03
1.000000000000001e+00	1.000000e+01	6.902605e+00	6.672987e-01	1.008186e-05	3.097396e-03
1.010000000000001e+00	1.000000e+01	6.822047e+00	6.680530e-01	1.036203e-05	3.177953e-03
1.020000000000001e+00	1.000000e+01	6.741615e+00	6.687896e-01	1.064274e-05	3.258385e-03
1.030000000000001e+00	1.000000e+01	6.661316e+00	6.695090e-01	1.092397e-05	3.338684e-03
1.040000000000001e+00	1.000000e+01	6.581157e+00	6.702122e-01	1.120569e-05	3.418843e-03
1.050000000000001e+00	1.000000e+01	6.501144e+00	6.708999e-01	1.148788e-05	3.498856e-03
1.060000000000001e+00	1.000000e+01	6.421282e+00	6.715727e-01	1.177052e-05	3.578718e-03
1.070000000000001e+00	1.000000e+01	6.341577e+00	6.722313e-01	1.205360e-05	3.658423e-03
1.080000000000001e+00	1.000000e+01	6.262033e+00	6.728763e-01	1.233708e-05	3.737967e-03
1.090000000000001e+00	1.000000e+01	6.182655e+00	6.735082e-01	1.262096e-05	3.817345e-03
1.100000000000001e+00	1.000000e+01	6.103447e+00	6.741276e-01	1.290522e-05	3.896553e-03
1.110000000000001e+00	1.000000e+01	6.024413e+00	6.747350e-01	1.318985e-05	3.975587e-03
1.120000000000001e+00	1.000000e+01	5.945555e+00	6.753308e-01	1.347483e-05	4.054445e-03
1.130000000000001e+00	1.000000e+01	5.866878e+00	6.759154e-01	1.376014e-05	4.133123e-03
1.140000000000001e+00	1.000000e+01	5.788383e+00	6.764892e-01	1.404578e-05	4.211617e-03
1.150000000000001e+00	1.000000e+01	5.710074e+00	6.770528e-01	1.433173e-05	4.289926e-03
1.160000000000001e+00	1.000000e+01	5.631953e+00	6.776065e-01	1.461799e-05	4.368047e-03
1.170000000000001e+00	1.000000e+01	5.554022e+00	6.781505e-01	1.490453e-05	4.445978e-03
1.180000000000001e+00	1.000000e+01	5.476283e+00	6.786852e-01	1.519136e-05	4.523717e-03
1.190000000000001e+00	1.000000e+01	5.398739e+00	6.792110e-01	1.547846e-05	4.601261e-03
1.200000000000001e+00	1.000000e+01	5.321391e+00	6.797281e-01	1.576581e-05	4.678610e-03
1.210000000000001e+00	1.000000e+01	5.244239e+00	6.802369e-01	1.605343e-05	4.755761e-03
1.220000000000001e+00	1.000000e+01	5.167287e+00	6.807376e-01	1.634129e-05	4.832713e-03
1.230000000000001e+00	1.000000e+01	5.090535e+00	6.812304e-01	1.662938e-05	4.909465e-03
1.240000000000001e+00	1.000000e+01	5.013984e+00	6.817157e-01	1.691771e-05	4.986016e-03
1.250000000000001e+00	1.000000e+01	4.937636e+00	6.821936e-01	1.720626e-05	5.062364e-03
1.260000000000001e+00	1.000000e+01	4.861491e+00	6.826644e-01	1.749502e-05	5.138509e-03
1.270000000000001e+00	1.000000e+01	4.785550e+00	6.831283e-01	1.778399e-05	5.214450e-03
1.280000000000001e+00	1.000000e+01	4.709814e+00	6.835855e-01	1.807317e-05	5.290186e-03
1.290000000000001e+00	1.000000e+01	4.634284e+00	6.840361e-01	1.836254e-05	5.365716e-03
1.300000000000001e+00	1.000000e+01	4.558959e+00	6.844805e-01	1.865211e-05	5.441041e-03
1.310000000000001e+00	1.000000e+01	4.483841e+00	6.849187e-01	1.894186e-05	5.516158e-03
1.320000000000001e+00	1.000000e+01	4.408931e+00	6.853510e-01	1.923179e-05	5.591069e-03
1.330000000000001e+00	1.000000e+01	4.334228e+00	6.857774e-01	1.952190e-05	5.665773e-03
1.340000000000001e+00	1.000000e+01	4.259732e+00	6.861982e-01	1.981218e-05	5.740268e-03
1.350000000000001e+00	1.000000e+01	4.185444e+00	6.866135e-01	2.010262e-05	5.814556e-03
1.360000000000001e+00	1.000000e+01	4.111364e+00	6.870235e-01	2.039323e-05	5.888636e-03
1.370000000000001e+00	1.000000e+01	4.037493e+00	6.874282e-01	2.068399e-05	5.962507e-03
1.380000000000001e+00	1.000000e+01	3.963830e+00	6.878279e-01	2.097491e-05	6.036170e-03
1.390000000000001e+00	1.000000e+01	3.890375e+00	6.882226e-01	2.126598e-05	6.109625e-03
1.400000000000001e+00	1.000000e+01	3.817129e+00	6.886126e-01	2.155719e-05	6.182871e-03
1.410000000000001e+00	1.000000e+01	3.744090e+00	6.889978e-01	2.184855e-05	6.255910e-03
1.420000000000001e+00	1.000000e+01	3.671260e+00	6.893784e-01	2.214005e-05	6.328740e-03
1.430000000000001e+00	1.000000e+01	3.598638e+00	6.897547e-01	2.243168e-05	6.401362e-03
1.440000000000001e+00	1.000000e+01	3.526224e+00	6.901265e-01	2.272344e-05	6.473776e-03
1.450000000000001e+00	1.000000e+01	3.454017e+00	6.904941e-01	2.301533e-05	6.545983e-03
1.460000000000001e+00	1.000000e+01	3.382017e+00	6.908575e-01	2.330735e-05	6.617982e-03
1.470000000000001e+00	1.000000e+01	3.310225e+00	6.912168e-01	2.359949e-05	6.689775e-03
1.480000000000001e+00	1.000000e+01	3.238640e+00	6.915722e-01	2.389175e-05	6.761360e-03
1.490000000000001e+00	1.000000e+01	3.167260e+00	6.919237e-01	2.418413e-05	6.832739e-03
1.500000000000000e+00	1.000000e+01	3.096087e+00	6.922714e-01	2.447663e-05	6.903912e-03
